EC-Lab ASCII FILE
Nb header lines : 69                          

Potentio Electrochemical Impedance Spectroscopy

Run on channel : 16 (SN 21084)
User : 
CE vs. WE compliance from -10 V to 10 V
Electrode connection : standard
Potential control : Ewe
Ewe ctrl range : min = -1,00 V, max = 1,00 V
Safety Limits :
	Do not start on E overload
Acquisition started on : 09/03/2025 12:01:18.206
Loaded Setting File :  C:\Users\IOMCguest\Desktop\Local Data\Sergey local\Interlaboratorz studz\Polarization\C7D1\SN50_C7D1_lr 0,1MFeCN6_in_1M_KCl_3306mL_symmetric_balanced_4_point_PEIS_10mV after night_C16.mpr
Saved on :
	File : C7D1_hr 0,1MFeCN6_in_1M_KCl_3306mL_symmetric_balanced_4_point_PEIS_10mV_C16.mpr
	Directory : C:\Users\IOMCguest\Desktop\Local Data\Sergey local\Interlaboratorz studz\Impedance\C7D1\
	Host : 10.232.56.37
Device : VMP3 (SN 0725)
Address : 10.232.56.42
EC-LAB for windows v11.61 (software)
Internet server v11.61 (firmware)
Command interpretor v11.61 (firmware)
Electrode material : 
Initial state : 
Electrolyte : 
Comments : 
Mass of active material : 0,001 mg
 at x = 0,000
Molecular weight of active material (at x = 0) : 0,001 g/mol
Atomic weight of intercalated ion : 0,001 g/mol
Acquisition started at : xo = 0,000
Number of e- transfered per intercalated ion : 1
for DX = 1, DQ = 26,802 mA.h
Battery capacity : 0,000 A.h
Electrode surface area : 0,000 cm?
Characteristic mass : 0,001 g
Volume (V) : 0,001 cm?
Cycle Definition : Charge/Discharge alternance
Mode                Single sine         
E (V)               0,0000              
vs.                 Eoc                 
tE (h:m:s)          0:00:0,0000         
record              0                   
dI                  0,000               
unit dI             mA                  
dt (s)              0,000               
fi                  200,000             
unit fi             kHz                 
ff                  10,000              
unit ff             mHz                 
Nd                  10                  
Points              per decade          
spacing             Logarithmic         
Va (mV)             10,0                
pw                  0,10                
Na                  2                   
corr                0                   
E range min (V)     -1,000              
E range max (V)     1,000               
I Range             Auto                
Bandwidth           5                   
nc cycles           200                 
goto Ns'            0                   
nr cycles           0                   
inc. cycle          0                   

freq/Hz	Re(Z)/Ohm	-Im(Z)/Ohm	|Z|/Ohm	Phase(Z)/deg	time/s	<Ewe>/V	<I>/mA	Cs/µF	Cp/µF	cycle number	I Range	|Ewe|/V	|I|/A	Ns	(Q-Qo)/mA.h	Re(Y)/Ohm-1	Im(Y)/Ohm-1	|Y|/Ohm-1	Phase(Y)/deg	Re(C)/nF	Im(C)/nF	|C|/nF	Phase(C)/deg	Re(M)	Im(M)	|M|	Phase(M)/deg	Re(Permittivity)	Im(Permittivity)	|Permittivity|	Phase(Permittivity)/deg	Re(Resistivity)/Ohm.cm	Im(Resistivity)/Ohm.cm	|Resistivity|/Ohm.cm	Phase(Resistivity)/deg	Re(Conductivity)/mS/cm	Im(Conductivity)/mS/cm	|Conductivity|/mS/cm	Phase(Conductivity)/deg	Tan(Delta)	Loss Angle(Delta)/deg	dq/mA.h	x	Pwe/W	Rwe/Ohm	
1,9999814E+005	2,6014110E-001	-2,1414513E-002	2,6102102E-001	4,7059116E+000	1,306483235355699E+000	-4,7457800E-003	-5,2924919E+000	-3,7160877E+001	-2,5012171E-001	1,000000000000000E+000	9	1,0693545E-003	4,0968135E-003	0	-1,497540040776392E-003	3,8181942E+000	-3,1430933E-001	3,8311090E+000	-4,7059116E+000	-2,5012163E+002	3,0384504E+003	3,0487280E+003	-9,4705910E+001	0,0000000E+000	0,0000000E+000	0,0000000E+000	9,4705910E+001	0,0000000E+000	0,0000000E+000	0,0000000E+000	-9,4705910E+001	0,0000000E+000	0,0000000E+000	0,0000000E+000	4,7059116E+000	0,0000000E+000	0,0000000E+000	0,0000000E+000	-4,7059116E+000	1,2147888E+001	8,5294090E+001	-1,497540040776392E-003	5,587523238536620E-005	2,5117002E-005	8,9670050E-001
1,5885727E+005	2,7220577E-001	-1,3754550E-002	2,7255306E-001	2,8926940E+000	1,740497095946921E+000	-4,7365660E-003	-5,0163178E+000	-7,2839447E+001	-1,8550573E-001	1,000000000000000E+000	9	1,9208727E-003	7,0477016E-003	0	-2,100097700106937E-003	3,6643353E+000	-1,8515877E-001	3,6690104E+000	-2,8926940E+000	-1,8550565E+002	3,6712019E+003	3,6758857E+003	-9,2892693E+001	0,0000000E+000	0,0000000E+000	0,0000000E+000	9,2892693E+001	0,0000000E+000	0,0000000E+000	0,0000000E+000	-9,2892693E+001	0,0000000E+000	0,0000000E+000	0,0000000E+000	2,8926940E+000	0,0000000E+000	0,0000000E+000	0,0000000E+000	-2,8926940E+000	1,9790234E+001	8,7107307E+001	-6,025576593305451E-004	7,835746880237812E-005	2,3760120E-005	9,4423163E-001
1,2618765E+005	2,7934191E-001	-9,0135308E-003	2,7948728E-001	1,8481228E+000	2,174474396597361E+000	-4,7417697E-003	-4,8338299E+000	-1,3992920E+002	-1,4553724E-001	1,000000000000000E+000	9	3,7989169E-003	1,3592450E-002	0	-2,675322396597566E-003	3,5761192E+000	-1,1539070E-001	3,5779803E+000	-1,8481228E+000	-1,4553714E+002	4,5104019E+003	4,5127495E+003	-9,1848122E+001	0,0000000E+000	0,0000000E+000	0,0000000E+000	9,1848122E+001	0,0000000E+000	0,0000000E+000	0,0000000E+000	-9,1848122E+001	0,0000000E+000	0,0000000E+000	0,0000000E+000	1,8481228E+000	0,0000000E+000	0,0000000E+000	0,0000000E+000	-1,8481228E+000	3,0991396E+001	8,8151878E+001	-5,752246964906291E-004	9,981987562627339E-005	2,2920909E-005	9,8095500E-001
1,0022640E+005	2,8259447E-001	-5,8765966E-003	2,8265557E-001	1,1913030E+000	2,468483690550784E+000	-4,7623431E-003	-4,7918801E+000	-2,7021664E+002	-1,1680160E-001	1,000000000000000E+000	9	9,1343168E-003	3,2316070E-002	0	-3,047176114587527E-003	3,5371101E+000	-7,3554754E-002	3,5378747E+000	-1,1913030E+000	-1,1680125E+002	5,6167690E+003	5,6179834E+003	-9,1191299E+001	0,0000000E+000	0,0000000E+000	0,0000000E+000	9,1191299E+001	0,0000000E+000	0,0000000E+000	0,0000000E+000	-9,1191299E+001	0,0000000E+000	0,0000000E+000	0,0000000E+000	1,1913030E+000	0,0000000E+000	0,0000000E+000	0,0000000E+000	-1,1913030E+000	4,8088120E+001	8,8808701E+001	-3,718537179899610E-004	1,136942378071200E-004	2,2820577E-005	9,9383605E-001
7,9609563E+004	2,8429684E-001	-3,5906357E-003	2,8431952E-001	7,2360051E-001	4,163478971080622E+000	-4,7257473E-003	-4,3231874E+000	-5,5677991E+002	-8,8799983E-002	1,000000000000000E+000	9	1,6048098E-002	5,6443881E-002	0	-5,053499008100480E-003	3,5168893E+000	-4,4417899E-002	3,5171697E+000	-7,2360051E-001	-8,8800201E+001	7,0309429E+003	7,0315034E+003	-9,0723602E+001	0,0000000E+000	0,0000000E+000	0,0000000E+000	9,0723602E+001	0,0000000E+000	0,0000000E+000	0,0000000E+000	-9,0723602E+001	0,0000000E+000	0,0000000E+000	0,0000000E+000	7,2360051E-001	0,0000000E+000	0,0000000E+000	0,0000000E+000	-7,2360051E-001	7,9177299E+001	8,9276398E+001	-2,006322893512952E-003	1,885528424939082E-004	2,0430291E-005	1,0931165E+000
6,3233004E+004	2,8504527E-001	-2,7048949E-003	2,8505811E-001	5,4368347E-001	5,857493451534538E+000	-4,6513439E-003	-3,9254544E+000	-9,3052045E+002	-8,3783768E-002	1,000000000000000E+000	9	1,2783977E-002	4,4846915E-002	0	-6,753853342886600E-003	3,5078988E+000	-3,3287685E-002	3,5080566E+000	-5,4368347E-001	-8,3784149E+001	8,8292412E+003	8,8296387E+003	-9,0543686E+001	0,0000000E+000	0,0000000E+000	0,0000000E+000	9,0543686E+001	0,0000000E+000	0,0000000E+000	0,0000000E+000	-9,0543686E+001	0,0000000E+000	0,0000000E+000	0,0000000E+000	5,4368347E-001	0,0000000E+000	0,0000000E+000	0,0000000E+000	-5,4368347E-001	1,0538127E+002	8,9456314E+001	-1,700354334786120E-003	2,519953488754957E-004	1,8258639E-005	1,1849186E+000
5,0224539E+004	2,8578192E-001	-1,8541012E-003	2,8578794E-001	3,7171939E-001	6,991483318706742E+000	-4,6105143E-003	-3,7246025E+000	-1,7091129E+003	-7,1936585E-002	1,000000000000000E+000	9	1,0921341E-002	3,8214844E-002	0	-8,044543170863425E-003	3,4990244E+000	-2,2701034E-002	3,4990981E+000	-3,7171939E-001	-7,1936577E+001	1,1087946E+004	1,1088180E+004	-9,0371719E+001	0,0000000E+000	0,0000000E+000	0,0000000E+000	9,0371719E+001	0,0000000E+000	0,0000000E+000	0,0000000E+000	-9,0371719E+001	0,0000000E+000	0,0000000E+000	0,0000000E+000	3,7171939E-001	0,0000000E+000	0,0000000E+000	0,0000000E+000	-3,7171939E-001	1,5413501E+002	8,9628281E+001	-1,290689827976825E-003	3,001527217082412E-004	1,7172333E-005	1,2378540E+000
3,9897566E+004	2,8625250E-001	-1,1657275E-003	2,8625488E-001	2,3332860E-001	7,705480952601647E+000	-4,5920489E-003	-3,6389332E+000	-3,4219739E+003	-5,6749884E-002	1,000000000000000E+000	9	9,4036171E-003	3,2850504E-002	0	-8,816830816645175E-003	3,4933612E+000	-1,4226275E-002	3,4933901E+000	-2,3332860E-001	-5,6750168E+001	1,3935329E+004	1,3935444E+004	-9,0233330E+001	0,0000000E+000	0,0000000E+000	0,0000000E+000	9,0233330E+001	0,0000000E+000	0,0000000E+000	0,0000000E+000	-9,0233330E+001	0,0000000E+000	0,0000000E+000	0,0000000E+000	2,3332860E-001	0,0000000E+000	0,0000000E+000	0,0000000E+000	-2,3332860E-001	2,4555696E+002	8,9766670E+001	-7,722876457817492E-004	3,289678121241414E-004	1,6710159E-005	1,2619218E+000
3,1686090E+004	2,8667316E-001	-6,1668118E-004	2,8667381E-001	1,2325247E-001	8,139496893243631E+000	-4,5787496E-003	-3,5759165E+000	-8,1449941E+003	-3,7690867E-002	1,000000000000000E+000	9	9,0915700E-003	3,1713989E-002	0	-9,201756143143504E-003	3,4882770E+000	-7,5038588E-003	3,4882851E+000	-1,2325247E-001	-3,7690987E+001	1,7521143E+004	1,7521184E+004	-9,0123253E+001	0,0000000E+000	0,0000000E+000	0,0000000E+000	9,0123253E+001	0,0000000E+000	0,0000000E+000	0,0000000E+000	-9,0123253E+001	0,0000000E+000	0,0000000E+000	0,0000000E+000	1,2325247E-001	0,0000000E+000	0,0000000E+000	0,0000000E+000	-1,2325247E-001	4,6486444E+002	8,9876747E+001	-3,849253264983296E-004	3,433298935933998E-004	1,6373226E-005	1,2804408E+000
2,5172580E+004	2,8677294E-001	-1,7733986E-005	2,8677294E-001	3,5431606E-003	8,573495260527125E+000	-4,5708041E-003	-3,5569556E+000	-3,5652175E+005	-1,3633973E-003	1,000000000000000E+000	9	9,7376090E-003	3,3955816E-002	0	-9,582519449241874E-003	3,4870794E+000	-2,1564035E-004	3,4870794E+000	-3,5431606E-003	-1,3621962E+000	2,2047240E+004	2,2047240E+004	-9,0003540E+001	0,0000000E+000	0,0000000E+000	0,0000000E+000	9,0003540E+001	0,0000000E+000	0,0000000E+000	0,0000000E+000	-9,0003540E+001	0,0000000E+000	0,0000000E+000	0,0000000E+000	3,5431606E-003	0,0000000E+000	0,0000000E+000	0,0000000E+000	-3,5431606E-003	1,6170811E+004	8,9996460E+001	-3,807633060983699E-004	3,575366844856398E-004	1,6258147E-005	1,2850326E+000
1,9995176E+004	2,8708449E-001	5,0589122E-004	2,8708494E-001	-1,0096471E-001	9,007499147817725E+000	-4,5680436E-003	-3,5269570E+000	1,5733949E+004	4,8857499E-002	1,000000000000000E+000	9	1,0062376E-002	3,5050172E-002	0	-1,001685818803931E-002	3,4832842E+000	6,1381338E-003	3,4832897E+000	1,0096471E-001	4,8858803E+001	2,7725781E+004	2,7725824E+004	-8,9899033E+001	0,0000000E+000	0,0000000E+000	0,0000000E+000	8,9899033E+001	0,0000000E+000	0,0000000E+000	0,0000000E+000	-8,9899033E+001	0,0000000E+000	0,0000000E+000	0,0000000E+000	-1,0096471E-001	0,0000000E+000	0,0000000E+000	0,0000000E+000	1,0096471E-001	5,6748267E+002	8,9899033E+001	-4,343387387974393E-004	3,737424468048174E-004	1,6111293E-005	1,2951798E+000
1,5884798E+004	2,8726009E-001	8,9645060E-004	2,8726149E-001	-1,7880197E-001	9,441489301767433E+000	-4,5602843E-003	-3,5365589E+000	1,1176661E+004	1,0884538E-001	1,000000000000000E+000	9	1,0316313E-002	3,5912622E-002	0	-1,041490157869500E-002	3,4811320E+000	1,0863545E-002	3,4811490E+000	1,7880197E-001	1,0884570E+002	3,4878594E+004	3,4878762E+004	-8,9821198E+001	0,0000000E+000	0,0000000E+000	0,0000000E+000	8,9821198E+001	0,0000000E+000	0,0000000E+000	0,0000000E+000	-8,9821198E+001	0,0000000E+000	0,0000000E+000	0,0000000E+000	-1,7880197E-001	0,0000000E+000	0,0000000E+000	0,0000000E+000	1,7880197E-001	3,2044162E+002	8,9821198E+001	-3,980433906556821E-004	3,885939808852114E-004	1,6127713E-005	1,2894694E+000
1,2618766E+004	2,8767341E-001	1,2841099E-003	2,8767627E-001	-2,5575387E-001	9,875491189042805E+000	-4,5697782E-003	-3,5316927E+000	9,8220264E+003	1,9570296E-001	1,000000000000000E+000	9	1,0353741E-002	3,5990946E-002	0	-1,081984865934816E-002	3,4760950E+000	1,5516512E-002	3,4761295E+000	2,5575387E-001	1,9570195E+002	4,3842457E+004	4,3842895E+004	-8,9744247E+001	0,0000000E+000	0,0000000E+000	0,0000000E+000	8,9744247E+001	0,0000000E+000	0,0000000E+000	0,0000000E+000	-8,9744247E+001	0,0000000E+000	0,0000000E+000	0,0000000E+000	-2,5575387E-001	0,0000000E+000	0,0000000E+000	0,0000000E+000	2,5575387E-001	2,2402554E+002	8,9744247E+001	-4,049470806531605E-004	4,037031009215214E-004	1,6139053E-005	1,2939342E+000
1,0020785E+004	2,8779733E-001	1,5948461E-003	2,8780174E-001	-3,1750476E-001	1,030948507631547E+001	-4,5584561E-003	-3,5270875E+000	9,9586299E+003	3,0580905E-001	1,000000000000000E+000	9	1,0407100E-002	3,6160655E-002	0	-1,119877403227426E-002	3,4745607E+000	1,9254489E-002	3,4746141E+000	3,1750476E-001	3,0580917E+002	5,5184648E+004	5,5185496E+004	-8,9682495E+001	0,0000000E+000	0,0000000E+000	0,0000000E+000	8,9682495E+001	0,0000000E+000	0,0000000E+000	0,0000000E+000	-8,9682495E+001	0,0000000E+000	0,0000000E+000	0,0000000E+000	-3,1750476E-001	0,0000000E+000	0,0000000E+000	0,0000000E+000	3,1750476E-001	1,8045461E+002	8,9682495E+001	-3,789253729261054E-004	4,178413160559768E-004	1,6078073E-005	1,2924137E+000
7,9597607E+003	2,8826189E-001	1,7777074E-003	2,8826737E-001	-3,5333785E-001	1,080074699303077E+001	-4,5599486E-003	-3,5043232E+000	1,1247600E+004	4,2774940E-001	1,000000000000000E+000	9	1,0286823E-002	3,5685007E-002	0	-1,167773068472008E-002	3,4689357E+000	2,1392882E-002	3,4690018E+000	3,5333785E-001	4,2775220E+002	6,9361164E+004	6,9362484E+004	-8,9646660E+001	0,0000000E+000	0,0000000E+000	0,0000000E+000	8,9646660E+001	0,0000000E+000	0,0000000E+000	0,0000000E+000	-8,9646660E+001	0,0000000E+000	0,0000000E+000	0,0000000E+000	-3,5333785E-001	0,0000000E+000	0,0000000E+000	0,0000000E+000	3,5333785E-001	1,6215373E+002	8,9646660E+001	-4,789566524458222E-004	4,357118327227985E-004	1,5979535E-005	1,3012352E+000
6,3238188E+003	2,8854495E-001	2,0164892E-003	2,8855199E-001	-4,0040362E-001	1,138230619396199E+001	-4,5804284E-003	-3,4980030E+000	1,2480869E+004	6,0952067E-001	1,000000000000000E+000	9	1,0139262E-002	3,5138424E-002	0	-1,223105239949960E-002	3,4654953E+000	2,4218529E-002	3,4655800E+000	4,0040362E-001	6,0952417E+002	8,7217977E+004	8,7220109E+004	-8,9599594E+001	0,0000000E+000	0,0000000E+000	0,0000000E+000	8,9599594E+001	0,0000000E+000	0,0000000E+000	0,0000000E+000	-8,9599594E+001	0,0000000E+000	0,0000000E+000	0,0000000E+000	-4,0040362E-001	0,0000000E+000	0,0000000E+000	0,0000000E+000	4,0040362E-001	1,4309274E+002	8,9599594E+001	-5,533217147795175E-004	4,563570098501800E-004	1,6022352E-005	1,3094410E+000
5,0216069E+003	2,8881326E-001	2,2478951E-003	2,8882203E-001	-4,4593623E-001	1,185167688295041E+001	-4,5554345E-003	-3,4985809E+000	1,4099424E+004	8,5406876E-001	1,000000000000000E+000	9	1,0758760E-002	3,7250485E-002	0	-1,267512572302685E-002	3,4622350E+000	2,6947312E-002	3,4623399E+000	4,4593623E-001	8,5407239E+002	1,0973217E+005	1,0973549E+005	-8,9554062E+001	0,0000000E+000	0,0000000E+000	0,0000000E+000	8,9554062E+001	0,0000000E+000	0,0000000E+000	0,0000000E+000	-8,9554062E+001	0,0000000E+000	0,0000000E+000	0,0000000E+000	-4,4593623E-001	0,0000000E+000	0,0000000E+000	0,0000000E+000	4,4593623E-001	1,2848164E+002	8,9554062E+001	-4,440733235272464E-004	4,729259826139152E-004	1,5937556E-005	1,3020806E+000
3,9861731E+003	2,8939942E-001	2,3125755E-003	2,8940865E-001	-4,5783782E-001	1,254294635576662E+001	-4,5561995E-003	-3,4912350E+000	1,7265059E+004	1,1023941E+000	1,000000000000000E+000	9	1,0183755E-002	3,5188150E-002	0	-1,336016145467465E-002	3,4552114E+000	2,7610414E-002	3,4553218E+000	4,5783782E-001	1,1023992E+003	1,3795536E+005	1,3795977E+005	-8,9542160E+001	0,0000000E+000	0,0000000E+000	0,0000000E+000	8,9542160E+001	0,0000000E+000	0,0000000E+000	0,0000000E+000	-8,9542160E+001	0,0000000E+000	0,0000000E+000	0,0000000E+000	-4,5783782E-001	0,0000000E+000	0,0000000E+000	0,0000000E+000	4,5783782E-001	1,2514161E+002	8,9542160E+001	-6,850357316477984E-004	4,984855868020315E-004	1,5906764E-005	1,3050395E+000
3,1669595E+003	2,8966978E-001	2,4857556E-003	2,8968045E-001	-4,9166262E-001	1,300996400459553E+001	-4,5579155E-003	-3,4838707E+000	2,0217115E+004	1,4886674E+000	1,000000000000000E+000	9	1,0432824E-002	3,6014937E-002	0	-1,379271984460448E-002	3,4519527E+000	2,9622387E-002	3,4520798E+000	4,9166262E-001	1,4886627E+003	1,7347722E+005	1,7348361E+005	-8,9508339E+001	0,0000000E+000	0,0000000E+000	0,0000000E+000	8,9508339E+001	0,0000000E+000	0,0000000E+000	0,0000000E+000	-8,9508339E+001	0,0000000E+000	0,0000000E+000	0,0000000E+000	-4,9166262E-001	0,0000000E+000	0,0000000E+000	0,0000000E+000	4,9166262E-001	1,1653188E+002	8,9508339E+001	-4,325583899298345E-004	5,146249219112542E-004	1,5879188E-005	1,3082906E+000
2,5158047E+003	2,8980851E-001	2,5145605E-003	2,8981942E-001	-4,9712166E-001	1,347566792008001E+001	-4,5570573E-003	-3,4835351E+000	2,5158291E+004	1,8938708E+000	1,000000000000000E+000	9	1,0587234E-002	3,6530450E-002	0	-1,421303791777215E-002	3,4502945E+000	2,9936921E-002	3,4504244E+000	4,9712166E-001	1,8938785E+003	2,1827267E+005	2,1828089E+005	-8,9502876E+001	0,0000000E+000	0,0000000E+000	0,0000000E+000	8,9502876E+001	0,0000000E+000	0,0000000E+000	0,0000000E+000	-8,9502876E+001	0,0000000E+000	0,0000000E+000	0,0000000E+000	-4,9712166E-001	0,0000000E+000	0,0000000E+000	0,0000000E+000	4,9712166E-001	1,1525215E+002	8,9502876E+001	-4,203180731676727E-004	5,303075543447998E-004	1,5874668E-005	1,3081703E+000
1,9980818E+003	2,9034710E-001	2,8282332E-003	2,9036087E-001	-5,5809307E-001	1,394492471567355E+001	-4,5578782E-003	-3,4920554E+000	2,8163826E+004	2,6720581E+000	1,000000000000000E+000	9	1,0697436E-002	3,6841866E-002	0	-1,467665917913321E-002	3,4438269E+000	3,3545870E-002	3,4439902E+000	5,5809307E-001	2,6720447E+003	2,7431416E+005	2,7432716E+005	-8,9441910E+001	0,0000000E+000	0,0000000E+000	0,0000000E+000	8,9441910E+001	0,0000000E+000	0,0000000E+000	0,0000000E+000	-8,9441910E+001	0,0000000E+000	0,0000000E+000	0,0000000E+000	-5,5809307E-001	0,0000000E+000	0,0000000E+000	0,0000000E+000	5,5809307E-001	1,0266024E+002	8,9441910E+001	-4,636212613610552E-004	5,476058869515963E-004	1,5916363E-005	1,3052136E+000
1,5884750E+003	2,9087183E-001	2,7557528E-003	2,9088488E-001	-5,4281050E-001	1,441193263119203E+001	-4,5540915E-003	-3,4843554E+000	3,6357961E+004	3,2631550E+000	1,000000000000000E+000	9	1,0767997E-002	3,7018072E-002	0	-1,514120507524240E-002	3,4376318E+000	3,2568514E-002	3,4377861E+000	5,4281050E-001	3,2631431E+003	3,4442850E+005	3,4444397E+005	-8,9457191E+001	0,0000000E+000	0,0000000E+000	0,0000000E+000	8,9457191E+001	0,0000000E+000	0,0000000E+000	0,0000000E+000	-8,9457191E+001	0,0000000E+000	0,0000000E+000	0,0000000E+000	-5,4281050E-001	0,0000000E+000	0,0000000E+000	0,0000000E+000	5,4281050E-001	1,0555077E+002	8,9457191E+001	-4,645458961091940E-004	5,649387189240304E-004	1,5868074E-005	1,3070111E+000
1,2604036E+003	2,9133084E-001	3,1239775E-003	2,9134759E-001	-6,1436635E-001	1,487766756000929E+001	-4,5552668E-003	-3,4841690E+000	4,0420590E+004	4,6472445E+000	1,000000000000000E+000	9	1,0809065E-002	3,7100237E-002	0	-1,554644494571635E-002	3,4321289E+000	3,6803152E-002	3,4323263E+000	6,1436635E-001	4,6472319E+003	4,3338525E+005	4,3341016E+005	-8,9385635E+001	0,0000000E+000	0,0000000E+000	0,0000000E+000	8,9385635E+001	0,0000000E+000	0,0000000E+000	0,0000000E+000	-8,9385635E+001	0,0000000E+000	0,0000000E+000	0,0000000E+000	-6,1436635E-001	0,0000000E+000	0,0000000E+000	0,0000000E+000	6,1436635E-001	9,3256386E+001	8,9385635E+001	-4,052398704739481E-004	5,800587633422140E-004	1,5871319E-005	1,3074185E+000
